TC760 000:154.678   SEGGER J-Link V7.54a Log File
TC760 000:155.012   DLL Compiled: Sep  7 2021 14:21:19
TC760 000:155.020   Logging started @ 2025-12-27 03:51
TC760 000:155.026 - 155.029ms
TC760 000:155.042 JLINK_SetWarnOutHandler(...)
TC760 000:155.051 - 0.012ms
TC760 000:155.059 JLINK_OpenEx(...)
TC760 000:158.600   Firmware: J-Link ARM-OB STM32 compiled Aug 22 2012 19:52:04
TC760 000:159.851   Firmware: J-Link ARM-OB STM32 compiled Aug 22 2012 19:52:04
TC760 000:163.130   Hardware: V7.00
TC760 000:163.155   S/N: 20090928
TC760 000:163.163   OEM: SEGGER
TC760 000:163.170   Feature(s): RDI,FlashDL,FlashBP,JFlash,GDB
TC760 000:164.543   TELNET listener socket opened on port 19021
TC760 000:165.009   WEBSRV Starting webserver
TC760 000:165.469   WEBSRV Webserver running on local port 19080
TC760 000:211.161 - 56.157ms returns "O.K."
TC760 000:211.288 JLINK_GetEmuCaps()
TC760 000:211.305 - 0.023ms returns 0x88EA5833
TC760 000:211.330 JLINK_TIF_GetAvailable(...)
TC760 000:211.735 - 0.443ms
TC760 000:211.807 JLINK_SetErrorOutHandler(...)
TC760 000:211.822 - 0.021ms
TC760 000:211.883 JLINK_ExecCommand("ProjectFile = "E:\CODE\Home_work5\≤√≈–œµÕ≥\MY-2026\MDK-ARM\JLinkSettings.ini"", ...). 
TC760 000:229.959   Ref file found at: E:\KEIL5\ARM\Segger\JLinkDevices.ref
TC760 000:230.121   REF file references invalid XML file: E:\KEIL5\JLINK\JLinkDevices.xml
TC760 000:230.790 - 18.925ms returns 0x00
TC760 000:230.871 JLINK_ExecCommand("Device = STM32F407IGHx", ...). 
TC760 000:231.668   Device "STM32F407IG" selected.
TC760 000:232.347 - 1.468ms returns 0x00
TC760 000:232.365 JLINK_ExecCommand("DisableConnectionTimeout", ...). 
TC760 000:232.376 - 0.005ms returns 0x01
TC760 000:232.384 JLINK_GetHardwareVersion()
TC760 000:232.390 - 0.008ms returns 70000
TC760 000:232.397 JLINK_GetDLLVersion()
TC760 000:232.402 - 0.007ms returns 75401
TC760 000:232.408 JLINK_GetOEMString(...)
TC760 000:232.421 JLINK_GetFirmwareString(...)
TC760 000:232.428 - 0.009ms
TC760 000:232.470 JLINK_GetDLLVersion()
TC760 000:232.475 - 0.007ms returns 75401
TC760 000:232.482 JLINK_GetCompileDateTime()
TC760 000:232.486 - 0.007ms
TC760 000:232.499 JLINK_GetFirmwareString(...)
TC760 000:232.504 - 0.007ms
TC760 000:232.514 JLINK_GetHardwareVersion()
TC760 000:232.519 - 0.006ms returns 70000
TC760 000:232.530 JLINK_GetSN()
TC760 000:232.536 - 0.008ms returns 20090928
TC760 000:232.546 JLINK_GetOEMString(...)
TC760 000:232.561 JLINK_TIF_Select(JLINKARM_TIF_SWD)
TC760 000:232.975 - 0.419ms returns 0x00
TC760 000:232.986 JLINK_HasError()
TC760 000:233.002 JLINK_SetSpeed(5000)
TC760 000:233.088 - 0.110ms
TC760 000:233.120 JLINK_GetId()
TC760 000:233.277   InitTarget() start
TC760 000:233.288    J-Link Script File: Executing InitTarget()
TC760 000:248.167   InitTarget() end
TC760 000:248.820   Found SW-DP with ID 0x2BA01477
TC760 000:252.088   Old FW that does not support reading DPIDR via DAP jobs
TC760 000:256.582   DPv0 detected
TC760 000:256.634   Scanning AP map to find all available APs
TC760 000:258.696   AP[1]: Stopped AP scan as end of AP map has been reached
TC760 000:258.717   AP[0]: AHB-AP (IDR: 0x24770011)
TC760 000:258.731   Iterating through AP map to find AHB-AP to use
TC760 000:262.394   AP[0]: Core found
TC760 000:262.420   AP[0]: AHB-AP ROM base: 0xE00FF000
TC760 000:265.013   CPUID register: 0x410FC241. Implementer code: 0x41 (ARM)
TC760 000:265.034   Found Cortex-M4 r0p1, Little endian.
TC760 000:366.447   -- Max. mem block: 0x00002C18
TC760 000:366.708   CPU_ReadMem(4 bytes @ 0xE000EDF0)
TC760 000:367.304   CPU_ReadMem(4 bytes @ 0xE0002000)
TC760 000:367.907   FPUnit: 6 code (BP) slots and 2 literal slots
TC760 000:367.921   CPU_ReadMem(4 bytes @ 0xE000EDFC)
TC760 000:368.511   CPU_WriteMem(4 bytes @ 0xE000EDFC)
TC760 000:369.202   CPU_ReadMem(4 bytes @ 0xE0001000)
TC760 000:369.897   CPU_WriteMem(4 bytes @ 0xE0001000)
TC760 000:370.534   CPU_ReadMem(4 bytes @ 0xE000ED88)
TC760 000:371.284   CPU_WriteMem(4 bytes @ 0xE000ED88)
TC760 000:371.822   CPU_ReadMem(4 bytes @ 0xE000ED88)
TC760 000:372.638   CPU_WriteMem(4 bytes @ 0xE000ED88)
TC760 000:373.247   CoreSight components:
TC760 000:373.273   ROMTbl[0] @ E00FF000
TC760 000:373.286   CPU_ReadMem(64 bytes @ 0xE00FF000)
TC760 000:374.442   CPU_ReadMem(32 bytes @ 0xE000EFE0)
TC760 000:375.355   [0][0]: E000E000 CID B105E00D PID 000BB00C SCS-M7
TC760 000:375.371   CPU_ReadMem(32 bytes @ 0xE0001FE0)
TC760 000:376.196   [0][1]: E0001000 CID B105E00D PID 003BB002 DWT
TC760 000:376.211   CPU_ReadMem(32 bytes @ 0xE0002FE0)
TC760 000:377.033   [0][2]: E0002000 CID B105E00D PID 002BB003 FPB
TC760 000:377.047   CPU_ReadMem(32 bytes @ 0xE0000FE0)
TC760 000:377.928   [0][3]: E0000000 CID B105E00D PID 003BB001 ITM
TC760 000:377.939   CPU_ReadMem(32 bytes @ 0xE0040FE0)
TC760 000:378.763   [0][4]: E0040000 CID B105900D PID 000BB9A1 TPIU
TC760 000:378.775   CPU_ReadMem(32 bytes @ 0xE0041FE0)
TC760 000:379.636   [0][5]: E0041000 CID B105900D PID 000BB925 ETM
TC760 000:380.199 - 147.099ms returns 0x2BA01477
TC760 000:380.265 JLINK_GetDLLVersion()
TC760 000:380.280 - 0.020ms returns 75401
TC760 000:380.300 JLINK_CORE_GetFound()
TC760 000:380.312 - 0.015ms returns 0xE0000FF
TC760 000:380.330 JLINK_GetDebugInfo(0x100 = JLINKARM_ROM_TABLE_ADDR_INDEX)
TC760 000:380.344   Value=0xE00FF000
TC760 000:380.360 - 0.035ms returns 0
TC760 000:380.496 JLINK_GetDebugInfo(0x100 = JLINKARM_ROM_TABLE_ADDR_INDEX)
TC760 000:380.520   Value=0xE00FF000
TC760 000:380.534 - 0.043ms returns 0
TC760 000:380.548 JLINK_GetDebugInfo(0x101 = JLINKARM_DEBUG_INFO_ETM_ADDR_INDEX)
TC760 000:380.560   Value=0xE0041000
TC760 000:380.573 - 0.029ms returns 0
TC760 000:380.601 JLINK_ReadMemEx(0xE0041FD0, 0x20 Bytes, Flags = 0x02000004)
TC760 000:380.669   CPU_ReadMem(32 bytes @ 0xE0041FD0)
TC760 000:381.452   Data:  04 00 00 00 00 00 00 00 00 00 00 00 00 00 00 00 ...
TC760 000:381.470 - 0.872ms returns 32 (0x20)
TC760 000:381.484 JLINK_GetDebugInfo(0x102 = JLINKARM_DEBUG_INFO_MTB_ADDR_INDEX)
TC760 000:381.492   Value=0x00000000
TC760 000:381.500 - 0.019ms returns 0
TC760 000:381.508 JLINK_GetDebugInfo(0x103 = JLINKARM_DEBUG_INFO_TPIU_ADDR_INDEX)
TC760 000:381.514   Value=0xE0040000
TC760 000:381.522 - 0.017ms returns 0
TC760 000:381.529 JLINK_GetDebugInfo(0x104 = JLINKARM_DEBUG_INFO_ITM_ADDR_INDEX)
TC760 000:381.536   Value=0xE0000000
TC760 000:381.544 - 0.017ms returns 0
TC760 000:381.551 JLINK_GetDebugInfo(0x105 = JLINKARM_DEBUG_INFO_DWT_ADDR_INDEX)
TC760 000:381.560   Value=0xE0001000
TC760 000:381.570 - 0.022ms returns 0
TC760 000:381.579 JLINK_GetDebugInfo(0x106 = JLINKARM_DEBUG_INFO_FPB_ADDR_INDEX)
TC760 000:381.586   Value=0xE0002000
TC760 000:381.595 - 0.020ms returns 0
TC760 000:381.604 JLINK_GetDebugInfo(0x107 = JLINKARM_DEBUG_INFO_NVIC_ADDR_INDEX)
TC760 000:381.611   Value=0xE000E000
TC760 000:381.620 - 0.020ms returns 0
TC760 000:381.629 JLINK_GetDebugInfo(0x10C = JLINKARM_DEBUG_INFO_DBG_ADDR_INDEX)
TC760 000:381.636   Value=0xE000EDF0
TC760 000:381.646 - 0.020ms returns 0
TC760 000:381.655 JLINK_ReadMemU32(0xE000EF40, 0x1 Items)
TC760 000:381.678   CPU_ReadMem(4 bytes @ 0xE000EF40)
TC760 000:382.199   Data:  21 00 11 10
TC760 000:382.215 - 0.565ms returns 1 (0x1)
TC760 000:382.227 JLINK_ReadMemU32(0xE000EF44, 0x1 Items)
TC760 000:382.240   CPU_ReadMem(4 bytes @ 0xE000EF44)
TC760 000:382.800   Data:  11 00 00 11
TC760 000:382.819 - 0.597ms returns 1 (0x1)
TC760 000:382.835 JLINK_ReadMemU32(0xE000ED00, 0x1 Items)
TC760 000:382.847   CPU_ReadMem(4 bytes @ 0xE000ED00)
TC760 000:383.618   Data:  41 C2 0F 41
TC760 000:383.637   Debug reg: CPUID
TC760 000:383.646 - 0.815ms returns 1 (0x1)
TC760 000:383.657 JLINK_GetDebugInfo(0x10F = JLINKARM_DEBUG_INFO_HAS_CORTEX_M_SECURITY_EXT_INDEX)
TC760 000:383.665   Value=0x00000000
TC760 000:383.674 - 0.019ms returns 0
TC760 000:383.683 JLINK_HasError()
TC760 000:383.693 JLINK_SetResetType(JLINKARM_CM3_RESET_TYPE_NORMAL)
TC760 000:383.700 - 0.010ms returns JLINKARM_CM3_RESET_TYPE_NORMAL
TC760 000:383.709 JLINK_Reset()
TC760 000:383.733   CPU is running
TC760 000:383.744   CPU_WriteMem(4 bytes @ 0xE000EDF0)
TC760 000:384.339   CPU is running
TC760 000:384.353   CPU_WriteMem(4 bytes @ 0xE000EDFC)
TC760 000:385.041   Reset: Halt core after reset via DEMCR.VC_CORERESET.
TC760 000:386.041   Reset: Reset device via AIRCR.SYSRESETREQ.
TC760 000:386.069   CPU is running
TC760 000:386.084   CPU_WriteMem(4 bytes @ 0xE000ED0C)
TC760 000:439.637   CPU_ReadMem(4 bytes @ 0xE000EDF0)
TC760 000:440.239   CPU_ReadMem(4 bytes @ 0xE000EDF0)
TC760 000:440.891   CPU is running
TC760 000:440.924   CPU_WriteMem(4 bytes @ 0xE000EDF0)
TC760 000:441.592   CPU is running
TC760 000:441.622   CPU_WriteMem(4 bytes @ 0xE000EDFC)
TC760 000:448.173   CPU_ReadMem(4 bytes @ 0xE000EDF0)
TC760 000:452.636   CPU_WriteMem(4 bytes @ 0xE0002000)
TC760 000:454.269   CPU_ReadMem(4 bytes @ 0xE000EDFC)
TC760 000:454.859   CPU_ReadMem(4 bytes @ 0xE0001000)
TC760 000:455.493 - 71.807ms
TC760 000:455.578 JLINK_HasError()
TC760 000:455.593 JLINK_ReadReg(R15 (PC))
TC760 000:455.626 - 0.037ms returns 0x08000240
TC760 000:455.759 JLINK_ReadReg(XPSR)
TC760 000:455.776 - 0.021ms returns 0x01000000
TC760 000:455.789 JLINK_Halt()
TC760 000:455.797 - 0.011ms returns 0x00
TC760 000:455.807 JLINK_ReadMemU32(0xE000EDF0, 0x1 Items)
TC760 000:455.828   CPU_ReadMem(4 bytes @ 0xE000EDF0)
TC760 000:456.315   Data:  03 00 03 00
TC760 000:456.344   Debug reg: DHCSR
TC760 000:456.354 - 0.550ms returns 1 (0x1)
TC760 000:456.376 JLINK_WriteU32_64(0xE000EDF0, 0xA05F0003)
TC760 000:456.389   Debug reg: DHCSR
TC760 000:456.958   CPU_WriteMem(4 bytes @ 0xE000EDF0)
TC760 000:457.649 - 1.290ms returns 0 (0x00000000)
TC760 000:457.677 JLINK_WriteU32_64(0xE000EDFC, 0x01000000)
TC760 000:457.684   Debug reg: DEMCR
TC760 000:457.707   CPU_WriteMem(4 bytes @ 0xE000EDFC)
TC760 000:458.247 - 0.588ms returns 0 (0x00000000)
TC760 000:458.363 JLINK_GetHWStatus(...)
TC760 000:458.742 - 0.398ms returns 0
TC760 000:458.805 JLINK_GetNumBPUnits(Type = 0xFFFFFF00)
TC760 000:458.815 - 0.012ms returns 0x06
TC760 000:458.823 JLINK_GetNumBPUnits(Type = 0xF0)
TC760 000:458.829 - 0.009ms returns 0x2000
TC760 000:458.836 JLINK_GetNumWPUnits()
TC760 000:458.842 - 0.008ms returns 4
TC760 000:458.862 JLINK_GetSpeed()
TC760 000:458.869 - 0.009ms returns 4000
TC760 000:458.884 JLINK_ReadMemU32(0xE000E004, 0x1 Items)
TC760 000:458.901   CPU_ReadMem(4 bytes @ 0xE000E004)
TC760 000:459.470   Data:  02 00 00 00
TC760 000:459.582 - 0.702ms returns 1 (0x1)
TC760 000:459.596 JLINK_ReadMemU32(0xE000E004, 0x1 Items)
TC760 000:459.613   CPU_ReadMem(4 bytes @ 0xE000E004)
TC760 000:460.305   Data:  02 00 00 00
TC760 000:460.334 - 0.741ms returns 1 (0x1)
TC760 000:460.349 JLINK_WriteMemEx(0xE0001000, 0x0000001C Bytes, Flags = 0x02000004)
TC760 000:460.357   Data:  01 00 00 00 00 00 00 00 00 00 00 00 00 00 00 00 ...
TC760 000:460.382   CPU_WriteMem(28 bytes @ 0xE0001000)
TC760 000:461.492 - 1.170ms returns 0x1C
TC760 000:461.534 JLINK_HasError()
TC760 000:461.545 JLINK_ReadReg(R15 (PC))
TC760 000:461.560 - 0.018ms returns 0x08000240
TC760 000:461.569 JLINK_ReadReg(XPSR)
TC760 000:461.576 - 0.010ms returns 0x01000000
TC760 000:804.474 JLINK_HasError()
TC760 000:804.526 JLINK_SetResetType(JLINKARM_CM3_RESET_TYPE_NORMAL)
TC760 000:804.535 - 0.012ms returns JLINKARM_CM3_RESET_TYPE_NORMAL
TC760 000:804.544 JLINK_Reset()
TC760 000:804.581   CPU_WriteMem(4 bytes @ 0xE000EDF0)
TC760 000:805.289   CPU_WriteMem(4 bytes @ 0xE000EDFC)
TC760 000:805.955   Reset: Halt core after reset via DEMCR.VC_CORERESET.
TC760 000:806.656   Reset: Reset device via AIRCR.SYSRESETREQ.
TC760 000:806.683   CPU_WriteMem(4 bytes @ 0xE000ED0C)
TC760 000:861.097   CPU_ReadMem(4 bytes @ 0xE000EDF0)
TC760 000:861.610   CPU_ReadMem(4 bytes @ 0xE000EDF0)
TC760 000:862.206   CPU_WriteMem(4 bytes @ 0xE000EDF0)
TC760 000:862.934   CPU_WriteMem(4 bytes @ 0xE000EDFC)
TC760 000:870.051   CPU_ReadMem(4 bytes @ 0xE000EDF0)
TC760 000:874.524   CPU_WriteMem(4 bytes @ 0xE0002000)
TC760 000:875.149   CPU_ReadMem(4 bytes @ 0xE000EDFC)
TC760 000:875.716   CPU_ReadMem(4 bytes @ 0xE0001000)
TC760 000:876.785 - 72.262ms
TC760 000:876.940 JLINK_HasError()
TC760 000:876.957 JLINK_ReadReg(R15 (PC))
TC760 000:876.981 - 0.029ms returns 0x08000240
TC760 000:876.994 JLINK_ReadReg(XPSR)
TC760 000:877.004 - 0.015ms returns 0x01000000
TC760 000:878.625 JLINK_ReadMemEx(0x08000240, 0x3C Bytes, Flags = 0x02000000)
TC760 000:878.661   CPU_ReadMem(64 bytes @ 0x08000240)
TC760 000:880.431    -- Updating C cache (64 bytes @ 0x08000240)
TC760 000:880.507    -- Read from C cache (60 bytes @ 0x08000240)
TC760 000:880.523   Data:  09 48 80 47 09 48 00 47 FE E7 FE E7 FE E7 FE E7 ...
TC760 000:880.533 - 1.911ms returns 60 (0x3C)
TC760 006:812.276 JLINK_HasError()
TC760 006:812.341 JLINK_ReadReg(R0)
TC760 006:812.901 - 0.584ms returns 0x00000000
TC760 006:812.939 JLINK_ReadReg(R1)
TC760 006:812.946 - 0.010ms returns 0x00000000
TC760 006:812.953 JLINK_ReadReg(R2)
TC760 006:812.958 - 0.007ms returns 0x00000000
TC760 006:812.965 JLINK_ReadReg(R3)
TC760 006:812.971 - 0.009ms returns 0x00000000
TC760 006:812.978 JLINK_ReadReg(R4)
TC760 006:812.983 - 0.007ms returns 0x00000000
TC760 006:812.989 JLINK_ReadReg(R5)
TC760 006:812.994 - 0.007ms returns 0x00000000
TC760 006:813.000 JLINK_ReadReg(R6)
TC760 006:813.005 - 0.007ms returns 0x00000000
TC760 006:813.011 JLINK_ReadReg(R7)
TC760 006:813.019 - 0.010ms returns 0x00000000
TC760 006:813.025 JLINK_ReadReg(R8)
TC760 006:813.044 - 0.021ms returns 0x00000000
TC760 006:813.051 JLINK_ReadReg(R9)
TC760 006:813.056 - 0.007ms returns 0x00000000
TC760 006:813.062 JLINK_ReadReg(R10)
TC760 006:813.067 - 0.007ms returns 0x00000000
TC760 006:813.073 JLINK_ReadReg(R11)
TC760 006:813.078 - 0.007ms returns 0x00000000
TC760 006:813.084 JLINK_ReadReg(R12)
TC760 006:813.089 - 0.007ms returns 0x00000000
TC760 006:813.096 JLINK_ReadReg(R13 (SP))
TC760 006:813.102 - 0.008ms returns 0x2000D078
TC760 006:813.108 JLINK_ReadReg(R14)
TC760 006:813.113 - 0.007ms returns 0xFFFFFFFF
TC760 006:813.120 JLINK_ReadReg(R15 (PC))
TC760 006:813.125 - 0.008ms returns 0x08000240
TC760 006:813.132 JLINK_ReadReg(XPSR)
TC760 006:813.138 - 0.008ms returns 0x01000000
TC760 006:813.144 JLINK_ReadReg(MSP)
TC760 006:813.149 - 0.007ms returns 0x2000D078
TC760 006:813.155 JLINK_ReadReg(PSP)
TC760 006:813.160 - 0.007ms returns 0x00000000
TC760 006:813.166 JLINK_ReadReg(CFBP)
TC760 006:813.171 - 0.007ms returns 0x00000000
TC760 006:813.178 JLINK_ReadReg(FPSCR)
TC760 006:817.932 - 4.759ms returns 0x00000000
TC760 006:817.944 JLINK_ReadReg(FPS0)
TC760 006:817.952 - 0.011ms returns 0x00000000
TC760 006:817.960 JLINK_ReadReg(FPS1)
TC760 006:817.966 - 0.009ms returns 0x00000000
TC760 006:817.973 JLINK_ReadReg(FPS2)
TC760 006:817.979 - 0.008ms returns 0x00000000
TC760 006:817.987 JLINK_ReadReg(FPS3)
TC760 006:817.993 - 0.009ms returns 0x00000000
TC760 006:818.000 JLINK_ReadReg(FPS4)
TC760 006:818.006 - 0.008ms returns 0x00000000
TC760 006:818.014 JLINK_ReadReg(FPS5)
TC760 006:818.020 - 0.008ms returns 0x00000000
TC760 006:818.027 JLINK_ReadReg(FPS6)
TC760 006:818.033 - 0.008ms returns 0x00000000
TC760 006:818.040 JLINK_ReadReg(FPS7)
TC760 006:818.047 - 0.010ms returns 0x00000000
TC760 006:818.055 JLINK_ReadReg(FPS8)
TC760 006:818.061 - 0.009ms returns 0x00000000
TC760 006:818.068 JLINK_ReadReg(FPS9)
TC760 006:818.074 - 0.008ms returns 0x00000000
TC760 006:818.082 JLINK_ReadReg(FPS10)
TC760 006:818.088 - 0.009ms returns 0x00000000
TC760 006:818.095 JLINK_ReadReg(FPS11)
TC760 006:818.101 - 0.009ms returns 0x00000000
TC760 006:818.109 JLINK_ReadReg(FPS12)
TC760 006:818.115 - 0.009ms returns 0x00000000
TC760 006:818.122 JLINK_ReadReg(FPS13)
TC760 006:818.128 - 0.009ms returns 0x00000000
TC760 006:818.136 JLINK_ReadReg(FPS14)
TC760 006:818.142 - 0.009ms returns 0x00000000
TC760 006:818.150 JLINK_ReadReg(FPS15)
TC760 006:818.156 - 0.008ms returns 0x00000000
TC760 006:818.163 JLINK_ReadReg(FPS16)
TC760 006:818.169 - 0.009ms returns 0x00000000
TC760 006:818.176 JLINK_ReadReg(FPS17)
TC760 006:818.183 - 0.009ms returns 0x00000000
TC760 006:818.190 JLINK_ReadReg(FPS18)
TC760 006:818.311 - 0.129ms returns 0x00000000
TC760 006:818.325 JLINK_ReadReg(FPS19)
TC760 006:818.332 - 0.009ms returns 0x00000000
TC760 006:818.340 JLINK_ReadReg(FPS20)
TC760 006:818.346 - 0.009ms returns 0x00000000
TC760 006:818.353 JLINK_ReadReg(FPS21)
TC760 006:818.359 - 0.009ms returns 0x00000000
TC760 006:818.366 JLINK_ReadReg(FPS22)
TC760 006:818.372 - 0.008ms returns 0x00000000
TC760 006:818.380 JLINK_ReadReg(FPS23)
TC760 006:818.386 - 0.009ms returns 0x00000000
TC760 006:818.393 JLINK_ReadReg(FPS24)
TC760 006:818.400 - 0.009ms returns 0x00000000
TC760 006:818.407 JLINK_ReadReg(FPS25)
TC760 006:818.413 - 0.009ms returns 0x00000000
TC760 006:818.421 JLINK_ReadReg(FPS26)
TC760 006:818.427 - 0.009ms returns 0x00000000
TC760 006:818.435 JLINK_ReadReg(FPS27)
TC760 006:818.441 - 0.008ms returns 0x00000000
TC760 006:818.448 JLINK_ReadReg(FPS28)
TC760 006:818.454 - 0.009ms returns 0x00000000
TC760 006:818.461 JLINK_ReadReg(FPS29)
TC760 006:818.467 - 0.009ms returns 0x00000000
TC760 006:818.475 JLINK_ReadReg(FPS30)
TC760 006:818.481 - 0.008ms returns 0x00000000
TC760 006:818.488 JLINK_ReadReg(FPS31)
TC760 006:818.494 - 0.009ms returns 0x00000000
TDC50 006:951.984 JLINK_ReadMemEx(0x08000240, 0x2 Bytes, Flags = 0x02000000)
TDC50 006:952.034    -- Read from C cache (2 bytes @ 0x08000240)
TDC50 006:952.044   Data:  09 48
TDC50 006:952.053 - 0.071ms returns 2 (0x2)
TDC50 006:952.062 JLINK_HasError()
TDC50 006:952.076 JLINK_SetBPEx(Addr = 0x08018C94, Type = 0xFFFFFFF2)
TDC50 006:952.099 - 0.026ms returns 0x00000001
TDC50 006:952.106 JLINK_HasError()
TDC50 006:952.112 JLINK_HasError()
TDC50 006:952.125 JLINK_Go()
TDC50 006:952.146   CPU_WriteMem(4 bytes @ 0xE0002000)
TDC50 006:953.516   CPU_ReadMem(4 bytes @ 0xE0001000)
TDC50 006:954.134   CPU_WriteMem(4 bytes @ 0xE0002008)
TDC50 006:954.159   CPU_WriteMem(4 bytes @ 0xE000200C)
TDC50 006:954.169   CPU_WriteMem(4 bytes @ 0xE0002010)
TDC50 006:954.183   CPU_WriteMem(4 bytes @ 0xE0002014)
TDC50 006:954.198   CPU_WriteMem(4 bytes @ 0xE0002018)
TDC50 006:954.213   CPU_WriteMem(4 bytes @ 0xE000201C)
TDC50 006:956.564   CPU_WriteMem(4 bytes @ 0xE0001004)
TDC50 006:957.604 - 5.495ms
TDC50 007:057.829 JLINK_HasError()
TDC50 007:057.884 JLINK_IsHalted()
TDC50 007:061.250 - 3.394ms returns TRUE
TDC50 007:061.304 JLINK_HasError()
TDC50 007:061.322 JLINK_Halt()
TDC50 007:061.344 - 0.025ms returns 0x00
TDC50 007:061.357 JLINK_IsHalted()
TDC50 007:061.364 - 0.009ms returns TRUE
TDC50 007:061.375 JLINK_IsHalted()
TDC50 007:061.381 - 0.009ms returns TRUE
TDC50 007:061.392 JLINK_IsHalted()
TDC50 007:061.398 - 0.008ms returns TRUE
TDC50 007:061.410 JLINK_HasError()
TDC50 007:061.422 JLINK_ReadReg(R15 (PC))
TDC50 007:061.436 - 0.016ms returns 0x080008BA
TDC50 007:061.447 JLINK_ReadReg(XPSR)
TDC50 007:061.454 - 0.010ms returns 0x01000000
TDC50 007:061.538 JLINK_HasError()
TDC50 007:061.561 JLINK_ClrBPEx(BPHandle = 0x00000001)
TDC50 007:061.575 - 0.017ms returns 0x00
TDC50 007:061.583 JLINK_HasError()
TDC50 007:061.592 JLINK_HasError()
TDC50 007:061.600 JLINK_ReadMemU32(0xE000ED30, 0x1 Items)
TDC50 007:061.624   CPU_ReadMem(4 bytes @ 0xE000ED30)
TDC50 007:062.097   Data:  03 00 00 00
TDC50 007:062.123 - 0.526ms returns 1 (0x1)
TDC50 007:062.135 JLINK_ReadMemU32(0xE0001028, 0x1 Items)
TDC50 007:062.153   CPU_ReadMem(4 bytes @ 0xE0001028)
TDC50 007:062.643   Data:  00 00 00 00
TDC50 007:062.674   Debug reg: DWT_FUNC[0]
TDC50 007:062.681 - 0.548ms returns 1 (0x1)
TDC50 007:062.692 JLINK_ReadMemU32(0xE0001038, 0x1 Items)
TDC50 007:062.708   CPU_ReadMem(4 bytes @ 0xE0001038)
TDC50 007:063.198   Data:  00 02 00 00
TDC50 007:063.218   Debug reg: DWT_FUNC[1]
TDC50 007:063.225 - 0.535ms returns 1 (0x1)
TDC50 007:063.236 JLINK_ReadMemU32(0xE0001048, 0x1 Items)
TDC50 007:063.249   CPU_ReadMem(4 bytes @ 0xE0001048)
TDC50 007:065.052   Data:  00 00 00 00
TDC50 007:065.072   Debug reg: DWT_FUNC[2]
TDC50 007:065.078 - 1.846ms returns 1 (0x1)
TDC50 007:065.090 JLINK_ReadMemU32(0xE0001058, 0x1 Items)
TDC50 007:065.104   CPU_ReadMem(4 bytes @ 0xE0001058)
TDC50 007:065.567   Data:  00 00 00 00
TDC50 007:065.590   Debug reg: DWT_FUNC[3]
TDC50 007:065.597 - 0.510ms returns 1 (0x1)
TDC50 007:065.688 JLINK_HasError()
TDC50 007:065.707 JLINK_ReadReg(R0)
TDC50 007:065.718 - 0.013ms returns 0x00000015
TDC50 007:065.724 JLINK_ReadReg(R1)
TDC50 007:065.729 - 0.007ms returns 0x2000D020
TDC50 007:065.735 JLINK_ReadReg(R2)
TDC50 007:065.740 - 0.007ms returns 0x2000308C
TDC50 007:065.746 JLINK_ReadReg(R3)
TDC50 007:065.751 - 0.007ms returns 0x20003078
TDC50 007:065.757 JLINK_ReadReg(R4)
TDC50 007:065.762 - 0.007ms returns 0x20003090
TDC50 007:065.768 JLINK_ReadReg(R5)
TDC50 007:065.773 - 0.007ms returns 0x20000108
TDC50 007:065.779 JLINK_ReadReg(R6)
TDC50 007:065.784 - 0.007ms returns 0x00000000
TDC50 007:065.790 JLINK_ReadReg(R7)
TDC50 007:065.795 - 0.007ms returns 0x00000000
TDC50 007:065.801 JLINK_ReadReg(R8)
TDC50 007:065.806 - 0.008ms returns 0x20003090
TDC50 007:065.812 JLINK_ReadReg(R9)
TDC50 007:065.817 - 0.007ms returns 0x00000000
TDC50 007:065.823 JLINK_ReadReg(R10)
TDC50 007:065.828 - 0.007ms returns 0x00000000
TDC50 007:065.834 JLINK_ReadReg(R11)
TDC50 007:065.839 - 0.007ms returns 0x00000000
TDC50 007:065.845 JLINK_ReadReg(R12)
TDC50 007:065.849 - 0.007ms returns 0x20003088
TDC50 007:065.855 JLINK_ReadReg(R13 (SP))
TDC50 007:065.861 - 0.007ms returns 0x2000D020
TDC50 007:065.867 JLINK_ReadReg(R14)
TDC50 007:065.872 - 0.007ms returns 0x080007A7
TDC50 007:065.878 JLINK_ReadReg(R15 (PC))
TDC50 007:065.883 - 0.007ms returns 0x080008BA
TDC50 007:065.888 JLINK_ReadReg(XPSR)
TDC50 007:065.894 - 0.007ms returns 0x01000000
TDC50 007:065.899 JLINK_ReadReg(MSP)
TDC50 007:065.904 - 0.007ms returns 0x2000D020
TDC50 007:065.910 JLINK_ReadReg(PSP)
TDC50 007:065.915 - 0.007ms returns 0x00000000
TDC50 007:065.921 JLINK_ReadReg(CFBP)
TDC50 007:065.926 - 0.007ms returns 0x04000000
TDC50 007:065.932 JLINK_ReadReg(FPSCR)
TDC50 007:071.910 - 6.007ms returns 0x03000000
TDC50 007:071.951 JLINK_ReadReg(FPS0)
TDC50 007:071.964 - 0.016ms returns 0x00000000
TDC50 007:071.972 JLINK_ReadReg(FPS1)
TDC50 007:071.979 - 0.009ms returns 0x00000000
TDC50 007:071.985 JLINK_ReadReg(FPS2)
TDC50 007:071.991 - 0.009ms returns 0x00000000
TDC50 007:071.998 JLINK_ReadReg(FPS3)
TDC50 007:072.004 - 0.008ms returns 0x00000000
TDC50 007:072.011 JLINK_ReadReg(FPS4)
TDC50 007:072.017 - 0.008ms returns 0x00000000
TDC50 007:072.024 JLINK_ReadReg(FPS5)
TDC50 007:072.030 - 0.008ms returns 0x00000000
TDC50 007:072.037 JLINK_ReadReg(FPS6)
TDC50 007:072.043 - 0.008ms returns 0x00000000
TDC50 007:072.050 JLINK_ReadReg(FPS7)
TDC50 007:072.056 - 0.008ms returns 0x00000000
TDC50 007:072.062 JLINK_ReadReg(FPS8)
TDC50 007:072.068 - 0.008ms returns 0x00000000
TDC50 007:072.075 JLINK_ReadReg(FPS9)
TDC50 007:072.082 - 0.009ms returns 0x00000000
TDC50 007:072.088 JLINK_ReadReg(FPS10)
TDC50 007:072.094 - 0.008ms returns 0x00000000
TDC50 007:072.101 JLINK_ReadReg(FPS11)
TDC50 007:072.107 - 0.008ms returns 0x00000000
TDC50 007:072.114 JLINK_ReadReg(FPS12)
TDC50 007:072.121 - 0.009ms returns 0x00000000
TDC50 007:072.128 JLINK_ReadReg(FPS13)
TDC50 007:072.134 - 0.009ms returns 0x00000000
TDC50 007:072.140 JLINK_ReadReg(FPS14)
TDC50 007:072.146 - 0.008ms returns 0x00000000
TDC50 007:072.153 JLINK_ReadReg(FPS15)
TDC50 007:072.159 - 0.009ms returns 0x00000000
TDC50 007:072.166 JLINK_ReadReg(FPS16)
TDC50 007:072.172 - 0.008ms returns 0x00000000
TDC50 007:072.179 JLINK_ReadReg(FPS17)
TDC50 007:072.185 - 0.009ms returns 0x00000000
TDC50 007:072.192 JLINK_ReadReg(FPS18)
TDC50 007:072.198 - 0.008ms returns 0x00000000
TDC50 007:072.205 JLINK_ReadReg(FPS19)
TDC50 007:072.211 - 0.008ms returns 0x00000000
TDC50 007:072.218 JLINK_ReadReg(FPS20)
TDC50 007:072.224 - 0.008ms returns 0x00000000
TDC50 007:072.230 JLINK_ReadReg(FPS21)
TDC50 007:072.236 - 0.008ms returns 0x00000000
TDC50 007:072.243 JLINK_ReadReg(FPS22)
TDC50 007:072.249 - 0.008ms returns 0x00000000
TDC50 007:072.256 JLINK_ReadReg(FPS23)
TDC50 007:072.262 - 0.008ms returns 0x00000000
TDC50 007:072.279 JLINK_ReadReg(FPS24)
TDC50 007:072.291 - 0.014ms returns 0x00000000
TDC50 007:072.297 JLINK_ReadReg(FPS25)
TDC50 007:072.304 - 0.009ms returns 0x00000000
TDC50 007:072.311 JLINK_ReadReg(FPS26)
TDC50 007:072.317 - 0.008ms returns 0x00000000
TDC50 007:072.324 JLINK_ReadReg(FPS27)
TDC50 007:072.330 - 0.008ms returns 0x00000000
TDC50 007:072.336 JLINK_ReadReg(FPS28)
TDC50 007:072.342 - 0.008ms returns 0x00000000
TDC50 007:072.349 JLINK_ReadReg(FPS29)
TDC50 007:072.355 - 0.008ms returns 0x00000000
TDC50 007:072.362 JLINK_ReadReg(FPS30)
TDC50 007:072.368 - 0.008ms returns 0x00000000
TDC50 007:072.375 JLINK_ReadReg(FPS31)
TDC50 007:072.381 - 0.009ms returns 0x00000000
TC760 007:246.159 JLINK_ReadMemEx(0x080008BA, 0x2 Bytes, Flags = 0x02000000)
TC760 007:246.243   CPU_ReadMem(64 bytes @ 0x08000880)
TC760 007:247.470    -- Updating C cache (64 bytes @ 0x08000880)
TC760 007:247.504    -- Read from C cache (2 bytes @ 0x080008BA)
TC760 007:247.516   Data:  AB BE
TC760 007:247.526 - 1.370ms returns 2 (0x2)
TC760 007:247.542 JLINK_ReadMemEx(0x080008BC, 0x3C Bytes, Flags = 0x02000000)
TC760 007:247.556   CPU_ReadMem(64 bytes @ 0x080008C0)
TC760 007:248.711    -- Updating C cache (64 bytes @ 0x080008C0)
TC760 007:248.728    -- Read from C cache (60 bytes @ 0x080008BC)
TC760 007:248.739   Data:  08 B1 00 20 1C BD 20 46 1C BD 00 00 00 48 70 47 ...
TC760 007:248.749 - 1.210ms returns 60 (0x3C)
TC760 044:944.362 JLINK_ReadMemEx(0x20002E74, 0x4 Bytes, Flags = 0x02000000)
TC760 044:944.494   CPU_ReadMem(64 bytes @ 0x20002E40)
TC760 044:946.045    -- Updating C cache (64 bytes @ 0x20002E40)
TC760 044:946.099    -- Read from C cache (4 bytes @ 0x20002E74)
TC760 044:946.114   Data:  00 00 00 00
TC760 044:946.128 - 1.770ms returns 4 (0x4)
TC760 044:946.239 JLINK_ReadMemEx(0x20002E78, 0x1 Bytes, Flags = 0x02000000)
TC760 044:946.260    -- Read from C cache (1 bytes @ 0x20002E78)
TC760 044:946.270   Data:  00
TC760 044:946.280 - 0.045ms returns 1 (0x1)
TC760 044:946.297 JLINK_ReadMemEx(0x20002E79, 0x1 Bytes, Flags = 0x02000000)
TC760 044:946.307    -- Read from C cache (1 bytes @ 0x20002E79)
TC760 044:946.316   Data:  00
TC760 044:946.326 - 0.032ms returns 1 (0x1)
TC760 044:946.337 JLINK_ReadMemEx(0x20002E7A, 0x1 Bytes, Flags = 0x02000000)
TC760 044:946.346    -- Read from C cache (1 bytes @ 0x20002E7A)
TC760 044:946.356   Data:  00
TC760 044:946.365 - 0.031ms returns 1 (0x1)
TC760 044:946.376 JLINK_ReadMemEx(0x20002E7B, 0x1 Bytes, Flags = 0x02000000)
TC760 044:946.385    -- Read from C cache (1 bytes @ 0x20002E7B)
TC760 044:946.395   Data:  00
TC760 044:946.405 - 0.031ms returns 1 (0x1)
TC760 044:946.416 JLINK_ReadMemEx(0x20002E7C, 0x1 Bytes, Flags = 0x02000000)
TC760 044:946.424    -- Read from C cache (1 bytes @ 0x20002E7C)
TC760 044:946.434   Data:  00
TC760 044:946.444 - 0.032ms returns 1 (0x1)
TC760 044:946.455 JLINK_ReadMemEx(0x20002E80, 0x4 Bytes, Flags = 0x02000000)
TC760 044:946.472   CPU_ReadMem(64 bytes @ 0x20002E80)
TC760 044:948.043    -- Updating C cache (64 bytes @ 0x20002E80)
TC760 044:948.081    -- Read from C cache (4 bytes @ 0x20002E80)
TC760 044:948.093   Data:  00 00 00 00
TC760 044:948.105 - 1.654ms returns 4 (0x4)
TC760 044:948.139 JLINK_ReadMemEx(0x20002E84, 0x4 Bytes, Flags = 0x02000000)
TC760 044:948.156    -- Read from C cache (4 bytes @ 0x20002E84)
TC760 044:948.167   Data:  00 00 00 00
TC760 044:948.177 - 0.041ms returns 4 (0x4)
TC760 044:948.190 JLINK_ReadMemEx(0x20002E88, 0x1 Bytes, Flags = 0x02000000)
TC760 044:948.200    -- Read from C cache (1 bytes @ 0x20002E88)
TC760 044:948.210   Data:  00
TC760 044:948.220 - 0.033ms returns 1 (0x1)
TC760 057:839.000 JLINK_ReadMemEx(0x20002ED1, 0x1 Bytes, Flags = 0x02000000)
TC760 057:839.130   CPU_ReadMem(64 bytes @ 0x20002EC0)
TC760 057:840.921    -- Updating C cache (64 bytes @ 0x20002EC0)
TC760 057:840.953    -- Read from C cache (1 bytes @ 0x20002ED1)
TC760 057:840.963   Data:  00
TC760 057:840.971 - 1.973ms returns 1 (0x1)
TC760 057:841.006 JLINK_ReadMemEx(0x20002ED2, 0x1 Bytes, Flags = 0x02000000)
TC760 057:841.028    -- Read from C cache (1 bytes @ 0x20002ED2)
TC760 057:841.040   Data:  00
TC760 057:841.047 - 0.042ms returns 1 (0x1)
TC760 057:841.056 JLINK_ReadMemEx(0x20002ED3, 0x2 Bytes, Flags = 0x02000000)
TC760 057:841.063    -- Read from C cache (2 bytes @ 0x20002ED3)
TC760 057:841.070   Data:  00 00
TC760 057:841.077 - 0.023ms returns 2 (0x2)
TC760 057:841.084 JLINK_ReadMemEx(0x20002ED5, 0x2 Bytes, Flags = 0x02000000)
TC760 057:841.090    -- Read from C cache (2 bytes @ 0x20002ED5)
TC760 057:841.098   Data:  00 00
TC760 057:841.104 - 0.022ms returns 2 (0x2)
TC760 057:841.112 JLINK_ReadMemEx(0x20002ED7, 0x2 Bytes, Flags = 0x02000000)
TC760 057:841.118    -- Read from C cache (2 bytes @ 0x20002ED7)
TC760 057:841.125   Data:  00 00
TC760 057:841.133 - 0.023ms returns 2 (0x2)
TC760 057:841.141 JLINK_ReadMemEx(0x20002ED9, 0x2 Bytes, Flags = 0x02000000)
TC760 057:841.147    -- Read from C cache (2 bytes @ 0x20002ED9)
TC760 057:841.153   Data:  00 00
TC760 057:841.160 - 0.022ms returns 2 (0x2)
TC760 057:841.167 JLINK_ReadMemEx(0x20002EDB, 0x2 Bytes, Flags = 0x02000000)
TC760 057:841.173    -- Read from C cache (2 bytes @ 0x20002EDB)
TC760 057:841.180   Data:  00 00
TC760 057:841.187 - 0.022ms returns 2 (0x2)
TC760 057:841.195 JLINK_ReadMemEx(0x20002EDD, 0x1 Bytes, Flags = 0x02000000)
TC760 057:841.201    -- Read from C cache (1 bytes @ 0x20002EDD)
TC760 057:841.208   Data:  00
TC760 057:841.215 - 0.022ms returns 1 (0x1)
TC760 057:841.226 JLINK_ReadMemEx(0x20002EDE, 0x2 Bytes, Flags = 0x02000000)
TC760 057:841.232    -- Read from C cache (2 bytes @ 0x20002EDE)
TC760 057:841.239   Data:  00 00
TC760 057:841.246 - 0.022ms returns 2 (0x2)
TC760 062:144.276 JLINK_ReadMemEx(0x20002EE0, 0x2 Bytes, Flags = 0x02000000)
TC760 062:144.348    -- Read from C cache (2 bytes @ 0x20002EE0)
TC760 062:144.358   Data:  00 00
TC760 062:144.367 - 0.093ms returns 2 (0x2)
TC760 062:144.379 JLINK_ReadMemEx(0x20002EE2, 0x2 Bytes, Flags = 0x02000000)
TC760 062:144.386    -- Read from C cache (2 bytes @ 0x20002EE2)
TC760 062:144.393   Data:  00 00
TC760 062:144.400 - 0.023ms returns 2 (0x2)
TC760 062:144.407 JLINK_ReadMemEx(0x20002EE4, 0x4 Bytes, Flags = 0x02000000)
TC760 062:144.549    -- Read from C cache (4 bytes @ 0x20002EE4)
TC760 062:144.558   Data:  00 00 00 00
TC760 062:144.565 - 0.160ms returns 4 (0x4)
TC760 062:144.584 JLINK_ReadMemEx(0x20002EE8, 0x2 Bytes, Flags = 0x02000000)
TC760 062:144.591    -- Read from C cache (2 bytes @ 0x20002EE8)
TC760 062:144.598   Data:  00 00
TC760 062:144.605 - 0.023ms returns 2 (0x2)
TC760 062:144.612 JLINK_ReadMemEx(0x20002EEA, 0x2 Bytes, Flags = 0x02000000)
TC760 062:144.618    -- Read from C cache (2 bytes @ 0x20002EEA)
TC760 062:144.625   Data:  00 00
TC760 062:144.632 - 0.021ms returns 2 (0x2)
TC760 062:144.639 JLINK_ReadMemEx(0x20002EEC, 0x2 Bytes, Flags = 0x02000000)
TC760 062:144.645    -- Read from C cache (2 bytes @ 0x20002EEC)
TC760 062:144.651   Data:  00 00
TC760 062:144.658 - 0.021ms returns 2 (0x2)
TC760 062:144.665 JLINK_ReadMemEx(0x20002EEE, 0x2 Bytes, Flags = 0x02000000)
TC760 062:144.671    -- Read from C cache (2 bytes @ 0x20002EEE)
TC760 062:144.677   Data:  00 00
TC760 062:144.684 - 0.021ms returns 2 (0x2)
TC760 062:144.691 JLINK_ReadMemEx(0x20002EF0, 0x2 Bytes, Flags = 0x02000000)
TC760 062:144.697    -- Read from C cache (2 bytes @ 0x20002EF0)
TC760 062:144.703   Data:  00 00
TC760 062:144.710 - 0.021ms returns 2 (0x2)
TC760 071:651.157 JLINK_HasError()
TC760 071:651.244 JLINK_SetResetType(JLINKARM_CM3_RESET_TYPE_NORMAL)
TC760 071:651.261 - 0.023ms returns JLINKARM_CM3_RESET_TYPE_NORMAL
TC760 071:651.278 JLINK_Reset()
TC760 071:651.338   CPU_WriteMem(4 bytes @ 0xE000EDF0)
TC760 071:652.059   CPU_WriteMem(4 bytes @ 0xE000EDFC)
TC760 071:652.777   Reset: Halt core after reset via DEMCR.VC_CORERESET.
TC760 071:653.598   Reset: Reset device via AIRCR.SYSRESETREQ.
TC760 071:653.653   CPU_WriteMem(4 bytes @ 0xE000ED0C)
TC760 071:707.227   CPU_ReadMem(4 bytes @ 0xE000EDF0)
TC760 071:707.806   CPU_ReadMem(4 bytes @ 0xE000EDF0)
TC760 071:708.557   CPU_WriteMem(4 bytes @ 0xE000EDF0)
TC760 071:709.205   CPU_WriteMem(4 bytes @ 0xE000EDFC)
TC760 071:715.395   CPU_ReadMem(4 bytes @ 0xE000EDF0)
TC760 071:719.353   CPU_WriteMem(4 bytes @ 0xE0002000)
TC760 071:720.032   CPU_ReadMem(4 bytes @ 0xE000EDFC)
TC760 071:720.711   CPU_ReadMem(4 bytes @ 0xE0001000)
TC760 071:721.244 - 69.985ms
TC760 071:721.498 JLINK_HasError()
TC760 071:721.569 JLINK_ReadReg(R15 (PC))
TC760 071:721.597 - 0.031ms returns 0x08000240
TC760 071:721.606 JLINK_ReadReg(XPSR)
TC760 071:721.613 - 0.010ms returns 0x01000000
TC760 071:722.164 JLINK_ReadMemEx(0x08000240, 0x3C Bytes, Flags = 0x02000000)
TC760 071:722.190   CPU_ReadMem(64 bytes @ 0x08000240)
TC760 071:723.543    -- Updating C cache (64 bytes @ 0x08000240)
TC760 071:723.572    -- Read from C cache (60 bytes @ 0x08000240)
TC760 071:723.585   Data:  09 48 80 47 09 48 00 47 FE E7 FE E7 FE E7 FE E7 ...
TC760 071:723.594 - 1.433ms returns 60 (0x3C)
TC760 071:798.971 JLINK_HasError()
TC760 071:799.028 JLINK_ReadReg(R0)
TC760 071:799.050 - 0.025ms returns 0x00000000
TC760 071:799.059 JLINK_ReadReg(R1)
TC760 071:799.065 - 0.008ms returns 0x00000000
TC760 071:799.072 JLINK_ReadReg(R2)
TC760 071:799.077 - 0.008ms returns 0x00000000
TC760 071:799.084 JLINK_ReadReg(R3)
TC760 071:799.089 - 0.007ms returns 0x00000000
TC760 071:799.095 JLINK_ReadReg(R4)
TC760 071:799.100 - 0.007ms returns 0x00000000
TC760 071:799.107 JLINK_ReadReg(R5)
TC760 071:799.112 - 0.007ms returns 0x00000000
TC760 071:799.118 JLINK_ReadReg(R6)
TC760 071:799.123 - 0.008ms returns 0x00000000
TC760 071:799.130 JLINK_ReadReg(R7)
TC760 071:799.135 - 0.008ms returns 0x00000000
TC760 071:799.142 JLINK_ReadReg(R8)
TC760 071:799.147 - 0.007ms returns 0x00000000
TC760 071:799.153 JLINK_ReadReg(R9)
TC760 071:799.160 - 0.009ms returns 0x00000000
TC760 071:799.166 JLINK_ReadReg(R10)
TC760 071:799.171 - 0.007ms returns 0x00000000
TC760 071:799.178 JLINK_ReadReg(R11)
TC760 071:799.183 - 0.007ms returns 0x00000000
TC760 071:799.189 JLINK_ReadReg(R12)
TC760 071:799.194 - 0.007ms returns 0x00000000
TC760 071:799.201 JLINK_ReadReg(R13 (SP))
TC760 071:799.207 - 0.008ms returns 0x2000D078
TC760 071:799.213 JLINK_ReadReg(R14)
TC760 071:799.218 - 0.007ms returns 0xFFFFFFFF
TC760 071:799.224 JLINK_ReadReg(R15 (PC))
TC760 071:799.230 - 0.008ms returns 0x08000240
TC760 071:799.237 JLINK_ReadReg(XPSR)
TC760 071:799.242 - 0.007ms returns 0x01000000
TC760 071:799.248 JLINK_ReadReg(MSP)
TC760 071:799.254 - 0.007ms returns 0x2000D078
TC760 071:799.309 JLINK_ReadReg(PSP)
TC760 071:799.422 - 0.126ms returns 0x00000000
TC760 071:799.442 JLINK_ReadReg(CFBP)
TC760 071:799.450 - 0.010ms returns 0x00000000
TC760 071:799.457 JLINK_ReadReg(FPSCR)
TC760 071:804.607 - 5.170ms returns 0x00000000
TC760 071:804.638 JLINK_ReadReg(FPS0)
TC760 071:804.649 - 0.014ms returns 0x00000000
TC760 071:804.657 JLINK_ReadReg(FPS1)
TC760 071:804.665 - 0.010ms returns 0x00000000
TC760 071:804.672 JLINK_ReadReg(FPS2)
TC760 071:804.678 - 0.009ms returns 0x00000000
TC760 071:804.686 JLINK_ReadReg(FPS3)
TC760 071:804.692 - 0.009ms returns 0x00000000
TC760 071:804.699 JLINK_ReadReg(FPS4)
TC760 071:804.705 - 0.008ms returns 0x00000000
TC760 071:804.713 JLINK_ReadReg(FPS5)
TC760 071:804.719 - 0.008ms returns 0x00000000
TC760 071:804.726 JLINK_ReadReg(FPS6)
TC760 071:804.732 - 0.009ms returns 0x00000000
TC760 071:804.739 JLINK_ReadReg(FPS7)
TC760 071:804.745 - 0.008ms returns 0x00000000
TC760 071:804.753 JLINK_ReadReg(FPS8)
TC760 071:804.759 - 0.008ms returns 0x00000000
TC760 071:804.767 JLINK_ReadReg(FPS9)
TC760 071:804.774 - 0.009ms returns 0x00000000
TC760 071:804.781 JLINK_ReadReg(FPS10)
TC760 071:804.787 - 0.008ms returns 0x00000000
TC760 071:804.795 JLINK_ReadReg(FPS11)
TC760 071:804.801 - 0.008ms returns 0x00000000
TC760 071:804.808 JLINK_ReadReg(FPS12)
TC760 071:804.814 - 0.008ms returns 0x00000000
TC760 071:804.821 JLINK_ReadReg(FPS13)
TC760 071:804.827 - 0.008ms returns 0x00000000
TC760 071:804.834 JLINK_ReadReg(FPS14)
TC760 071:804.861 - 0.029ms returns 0x00000000
TC760 071:804.868 JLINK_ReadReg(FPS15)
TC760 071:804.874 - 0.008ms returns 0x00000000
TC760 071:804.881 JLINK_ReadReg(FPS16)
TC760 071:804.888 - 0.008ms returns 0x00000000
TC760 071:804.895 JLINK_ReadReg(FPS17)
TC760 071:804.901 - 0.009ms returns 0x00000000
TC760 071:804.908 JLINK_ReadReg(FPS18)
TC760 071:804.914 - 0.008ms returns 0x00000000
TC760 071:804.922 JLINK_ReadReg(FPS19)
TC760 071:804.928 - 0.008ms returns 0x00000000
TC760 071:804.935 JLINK_ReadReg(FPS20)
TC760 071:804.941 - 0.008ms returns 0x00000000
TC760 071:804.948 JLINK_ReadReg(FPS21)
TC760 071:804.954 - 0.008ms returns 0x00000000
TC760 071:804.961 JLINK_ReadReg(FPS22)
TC760 071:804.967 - 0.008ms returns 0x00000000
TC760 071:804.975 JLINK_ReadReg(FPS23)
TC760 071:804.981 - 0.008ms returns 0x00000000
TC760 071:804.988 JLINK_ReadReg(FPS24)
TC760 071:804.994 - 0.009ms returns 0x00000000
TC760 071:805.001 JLINK_ReadReg(FPS25)
TC760 071:805.007 - 0.008ms returns 0x00000000
TC760 071:805.014 JLINK_ReadReg(FPS26)
TC760 071:805.020 - 0.009ms returns 0x00000000
TC760 071:805.027 JLINK_ReadReg(FPS27)
TC760 071:805.033 - 0.008ms returns 0x00000000
TC760 071:805.040 JLINK_ReadReg(FPS28)
TC760 071:805.046 - 0.008ms returns 0x00000000
TC760 071:805.053 JLINK_ReadReg(FPS29)
TC760 071:805.059 - 0.008ms returns 0x00000000
TC760 071:805.066 JLINK_ReadReg(FPS30)
TC760 071:805.072 - 0.008ms returns 0x00000000
TC760 071:805.079 JLINK_ReadReg(FPS31)
TC760 071:805.085 - 0.008ms returns 0x00000000
TC760 071:805.174 JLINK_ReadMemEx(0x20002E74, 0x4 Bytes, Flags = 0x02000000)
TC760 071:805.197   CPU_ReadMem(64 bytes @ 0x20002E40)
TC760 071:806.349    -- Updating C cache (64 bytes @ 0x20002E40)
TC760 071:806.375    -- Read from C cache (4 bytes @ 0x20002E74)
TC760 071:806.386   Data:  00 00 00 00
TC760 071:806.395 - 1.224ms returns 4 (0x4)
TC760 071:806.439 JLINK_ReadMemEx(0x20002E78, 0x1 Bytes, Flags = 0x02000000)
TC760 071:806.452    -- Read from C cache (1 bytes @ 0x20002E78)
TC760 071:806.461   Data:  00
TC760 071:806.469 - 0.032ms returns 1 (0x1)
TC760 071:806.481 JLINK_ReadMemEx(0x20002E79, 0x1 Bytes, Flags = 0x02000000)
TC760 071:806.488    -- Read from C cache (1 bytes @ 0x20002E79)
TC760 071:806.497   Data:  00
TC760 071:806.505 - 0.027ms returns 1 (0x1)
TC760 071:806.514 JLINK_ReadMemEx(0x20002E7A, 0x1 Bytes, Flags = 0x02000000)
TC760 071:806.521    -- Read from C cache (1 bytes @ 0x20002E7A)
TC760 071:806.529   Data:  00
TC760 071:806.537 - 0.026ms returns 1 (0x1)
TC760 071:806.546 JLINK_ReadMemEx(0x20002E7B, 0x1 Bytes, Flags = 0x02000000)
TC760 071:806.553    -- Read from C cache (1 bytes @ 0x20002E7B)
TC760 071:806.561   Data:  00
TC760 071:806.569 - 0.026ms returns 1 (0x1)
TC760 071:806.577 JLINK_ReadMemEx(0x20002E7C, 0x1 Bytes, Flags = 0x02000000)
TC760 071:806.584    -- Read from C cache (1 bytes @ 0x20002E7C)
TC760 071:806.592   Data:  00
TC760 071:806.600 - 0.026ms returns 1 (0x1)
TC760 071:806.609 JLINK_ReadMemEx(0x20002E80, 0x4 Bytes, Flags = 0x02000000)
TC760 071:806.619   CPU_ReadMem(64 bytes @ 0x20002E80)
TC760 071:807.748    -- Updating C cache (64 bytes @ 0x20002E80)
TC760 071:807.777    -- Read from C cache (4 bytes @ 0x20002E80)
TC760 071:807.787   Data:  00 00 00 00
TC760 071:807.797 - 1.191ms returns 4 (0x4)
TC760 071:807.816 JLINK_ReadMemEx(0x20002E84, 0x4 Bytes, Flags = 0x02000000)
TC760 071:807.831    -- Read from C cache (4 bytes @ 0x20002E84)
TC760 071:807.839   Data:  00 00 00 00
TC760 071:807.847 - 0.034ms returns 4 (0x4)
TC760 071:807.857 JLINK_ReadMemEx(0x20002E88, 0x1 Bytes, Flags = 0x02000000)
TC760 071:807.865    -- Read from C cache (1 bytes @ 0x20002E88)
TC760 071:807.873   Data:  00
TC760 071:807.881 - 0.027ms returns 1 (0x1)
TC760 071:807.966 JLINK_ReadMemEx(0x20002ED1, 0x1 Bytes, Flags = 0x02000000)
TC760 071:807.977   CPU_ReadMem(64 bytes @ 0x20002EC0)
TC760 071:809.150    -- Updating C cache (64 bytes @ 0x20002EC0)
TC760 071:809.184    -- Read from C cache (1 bytes @ 0x20002ED1)
TC760 071:809.209   Data:  00
TC760 071:809.221 - 1.260ms returns 1 (0x1)
TC760 071:809.245 JLINK_ReadMemEx(0x20002ED2, 0x1 Bytes, Flags = 0x02000000)
TC760 071:809.262    -- Read from C cache (1 bytes @ 0x20002ED2)
TC760 071:809.275   Data:  00
TC760 071:809.286 - 0.044ms returns 1 (0x1)
TC760 071:809.299 JLINK_ReadMemEx(0x20002ED3, 0x2 Bytes, Flags = 0x02000000)
TC760 071:809.311    -- Read from C cache (2 bytes @ 0x20002ED3)
TC760 071:809.323   Data:  00 00
TC760 071:809.334 - 0.039ms returns 2 (0x2)
TC760 071:809.346 JLINK_ReadMemEx(0x20002ED5, 0x2 Bytes, Flags = 0x02000000)
TC760 071:809.357    -- Read from C cache (2 bytes @ 0x20002ED5)
TC760 071:809.368   Data:  00 00
TC760 071:809.379 - 0.037ms returns 2 (0x2)
TC760 071:809.392 JLINK_ReadMemEx(0x20002ED7, 0x2 Bytes, Flags = 0x02000000)
TC760 071:809.402    -- Read from C cache (2 bytes @ 0x20002ED7)
TC760 071:809.413   Data:  00 00
TC760 071:809.424 - 0.036ms returns 2 (0x2)
TC760 071:809.437 JLINK_ReadMemEx(0x20002ED9, 0x2 Bytes, Flags = 0x02000000)
TC760 071:809.447    -- Read from C cache (2 bytes @ 0x20002ED9)
TC760 071:809.459   Data:  00 00
TC760 071:809.470 - 0.037ms returns 2 (0x2)
TC760 071:809.482 JLINK_ReadMemEx(0x20002EDB, 0x2 Bytes, Flags = 0x02000000)
TC760 071:809.492    -- Read from C cache (2 bytes @ 0x20002EDB)
TC760 071:809.504   Data:  00 00
TC760 071:809.515 - 0.036ms returns 2 (0x2)
TC760 071:809.527 JLINK_ReadMemEx(0x20002EDD, 0x1 Bytes, Flags = 0x02000000)
TC760 071:809.538    -- Read from C cache (1 bytes @ 0x20002EDD)
TC760 071:809.550   Data:  00
TC760 071:809.561 - 0.037ms returns 1 (0x1)
TC760 071:809.577 JLINK_ReadMemEx(0x20002EDE, 0x2 Bytes, Flags = 0x02000000)
TC760 071:809.587    -- Read from C cache (2 bytes @ 0x20002EDE)
TC760 071:809.599   Data:  00 00
TC760 071:809.610 - 0.036ms returns 2 (0x2)
TC760 071:809.646 JLINK_ReadMemEx(0x20002EE0, 0x2 Bytes, Flags = 0x02000000)
TC760 071:809.657    -- Read from C cache (2 bytes @ 0x20002EE0)
TC760 071:809.668   Data:  00 00
TC760 071:809.679 - 0.037ms returns 2 (0x2)
TC760 071:809.691 JLINK_ReadMemEx(0x20002EE2, 0x2 Bytes, Flags = 0x02000000)
TC760 071:809.701    -- Read from C cache (2 bytes @ 0x20002EE2)
TC760 071:809.713   Data:  00 00
TC760 071:809.724 - 0.037ms returns 2 (0x2)
TC760 071:809.736 JLINK_ReadMemEx(0x20002EE4, 0x4 Bytes, Flags = 0x02000000)
TC760 071:809.747    -- Read from C cache (4 bytes @ 0x20002EE4)
TC760 071:809.759   Data:  00 00 00 00
TC760 071:810.079 - 0.348ms returns 4 (0x4)
TC760 071:810.112 JLINK_ReadMemEx(0x20002EE8, 0x2 Bytes, Flags = 0x02000000)
TC760 071:810.131    -- Read from C cache (2 bytes @ 0x20002EE8)
TC760 071:810.145   Data:  00 00
TC760 071:810.156 - 0.049ms returns 2 (0x2)
TC760 071:810.170 JLINK_ReadMemEx(0x20002EEA, 0x2 Bytes, Flags = 0x02000000)
TC760 071:810.182    -- Read from C cache (2 bytes @ 0x20002EEA)
TC760 071:810.194   Data:  00 00
TC760 071:810.206 - 0.039ms returns 2 (0x2)
TC760 071:810.218 JLINK_ReadMemEx(0x20002EEC, 0x2 Bytes, Flags = 0x02000000)
TC760 071:810.229    -- Read from C cache (2 bytes @ 0x20002EEC)
TC760 071:810.241   Data:  00 00
TC760 071:810.252 - 0.038ms returns 2 (0x2)
TC760 071:810.265 JLINK_ReadMemEx(0x20002EEE, 0x2 Bytes, Flags = 0x02000000)
TC760 071:810.276    -- Read from C cache (2 bytes @ 0x20002EEE)
TC760 071:810.288   Data:  00 00
TC760 071:810.299 - 0.037ms returns 2 (0x2)
TC760 071:810.312 JLINK_ReadMemEx(0x20002EF0, 0x2 Bytes, Flags = 0x02000000)
TC760 071:810.322    -- Read from C cache (2 bytes @ 0x20002EF0)
TC760 071:810.334   Data:  00 00
TC760 071:810.346 - 0.037ms returns 2 (0x2)
TC760 073:441.504 JLINK_HasError()
TC760 073:441.593 JLINK_SetResetType(JLINKARM_CM3_RESET_TYPE_NORMAL)
TC760 073:441.609 - 0.021ms returns JLINKARM_CM3_RESET_TYPE_NORMAL
TC760 073:441.625 JLINK_Reset()
TC760 073:441.682   CPU_WriteMem(4 bytes @ 0xE000EDF0)
TC760 073:442.412   CPU_WriteMem(4 bytes @ 0xE000EDFC)
TC760 073:443.203   Reset: Halt core after reset via DEMCR.VC_CORERESET.
TC760 073:443.916   Reset: Reset device via AIRCR.SYSRESETREQ.
TC760 073:443.971   CPU_WriteMem(4 bytes @ 0xE000ED0C)
TC760 073:498.100   CPU_ReadMem(4 bytes @ 0xE000EDF0)
TC760 073:498.701   CPU_ReadMem(4 bytes @ 0xE000EDF0)
TC760 073:499.351   CPU_WriteMem(4 bytes @ 0xE000EDF0)
TC760 073:499.971   CPU_WriteMem(4 bytes @ 0xE000EDFC)
TC760 073:506.506   CPU_ReadMem(4 bytes @ 0xE000EDF0)
TC760 073:510.639   CPU_WriteMem(4 bytes @ 0xE0002000)
TC760 073:511.243   CPU_ReadMem(4 bytes @ 0xE000EDFC)
TC760 073:511.829   CPU_ReadMem(4 bytes @ 0xE0001000)
TC760 073:512.442 - 70.835ms
TC760 073:512.569 JLINK_HasError()
TC760 073:512.581 JLINK_ReadReg(R15 (PC))
TC760 073:512.599 - 0.020ms returns 0x08000240
TC760 073:512.608 JLINK_ReadReg(XPSR)
TC760 073:512.615 - 0.010ms returns 0x01000000
TC760 073:598.305 JLINK_HasError()
TC760 073:598.363 JLINK_ReadReg(R0)
TC760 073:598.389 - 0.029ms returns 0x00000000
TC760 073:598.399 JLINK_ReadReg(R1)
TC760 073:598.406 - 0.009ms returns 0x00000000
TC760 073:598.413 JLINK_ReadReg(R2)
TC760 073:598.420 - 0.009ms returns 0x00000000
TC760 073:598.427 JLINK_ReadReg(R3)
TC760 073:598.433 - 0.009ms returns 0x00000000
TC760 073:598.440 JLINK_ReadReg(R4)
TC760 073:598.446 - 0.009ms returns 0x00000000
TC760 073:598.454 JLINK_ReadReg(R5)
TC760 073:598.460 - 0.009ms returns 0x00000000
TC760 073:598.467 JLINK_ReadReg(R6)
TC760 073:598.474 - 0.009ms returns 0x00000000
TC760 073:598.481 JLINK_ReadReg(R7)
TC760 073:598.487 - 0.009ms returns 0x00000000
TC760 073:598.495 JLINK_ReadReg(R8)
TC760 073:598.502 - 0.009ms returns 0x00000000
TC760 073:598.509 JLINK_ReadReg(R9)
TC760 073:598.517 - 0.010ms returns 0x00000000
TC760 073:598.524 JLINK_ReadReg(R10)
TC760 073:598.530 - 0.008ms returns 0x00000000
TC760 073:598.538 JLINK_ReadReg(R11)
TC760 073:598.544 - 0.008ms returns 0x00000000
TC760 073:598.551 JLINK_ReadReg(R12)
TC760 073:598.557 - 0.008ms returns 0x00000000
TC760 073:598.564 JLINK_ReadReg(R13 (SP))
TC760 073:598.571 - 0.010ms returns 0x2000D078
TC760 073:598.579 JLINK_ReadReg(R14)
TC760 073:598.585 - 0.009ms returns 0xFFFFFFFF
TC760 073:598.592 JLINK_ReadReg(R15 (PC))
TC760 073:598.599 - 0.009ms returns 0x08000240
TC760 073:598.606 JLINK_ReadReg(XPSR)
TC760 073:598.612 - 0.009ms returns 0x01000000
TC760 073:598.619 JLINK_ReadReg(MSP)
TC760 073:598.625 - 0.008ms returns 0x2000D078
TC760 073:598.632 JLINK_ReadReg(PSP)
TC760 073:598.638 - 0.008ms returns 0x00000000
TC760 073:598.646 JLINK_ReadReg(CFBP)
TC760 073:598.652 - 0.009ms returns 0x00000000
TC760 073:598.660 JLINK_ReadReg(FPSCR)
TC760 073:604.027 - 5.404ms returns 0x00000000
TC760 073:604.077 JLINK_ReadReg(FPS0)
TC760 073:604.091 - 0.017ms returns 0x00000000
TC760 073:604.100 JLINK_ReadReg(FPS1)
TC760 073:604.109 - 0.011ms returns 0x00000000
TC760 073:604.117 JLINK_ReadReg(FPS2)
TC760 073:604.125 - 0.010ms returns 0x00000000
TC760 073:604.133 JLINK_ReadReg(FPS3)
TC760 073:604.140 - 0.010ms returns 0x00000000
TC760 073:604.148 JLINK_ReadReg(FPS4)
TC760 073:604.155 - 0.010ms returns 0x00000000
TC760 073:604.164 JLINK_ReadReg(FPS5)
TC760 073:604.172 - 0.012ms returns 0x00000000
TC760 073:604.184 JLINK_ReadReg(FPS6)
TC760 073:604.192 - 0.012ms returns 0x00000000
TC760 073:604.202 JLINK_ReadReg(FPS7)
TC760 073:604.209 - 0.010ms returns 0x00000000
TC760 073:604.219 JLINK_ReadReg(FPS8)
TC760 073:604.227 - 0.011ms returns 0x00000000
TC760 073:604.282 JLINK_ReadReg(FPS9)
TC760 073:604.294 - 0.014ms returns 0x00000000
TC760 073:604.303 JLINK_ReadReg(FPS10)
TC760 073:604.309 - 0.010ms returns 0x00000000
TC760 073:604.318 JLINK_ReadReg(FPS11)
TC760 073:604.325 - 0.010ms returns 0x00000000
TC760 073:604.333 JLINK_ReadReg(FPS12)
TC760 073:604.339 - 0.009ms returns 0x00000000
TC760 073:604.347 JLINK_ReadReg(FPS13)
TC760 073:604.354 - 0.010ms returns 0x00000000
TC760 073:604.363 JLINK_ReadReg(FPS14)
TC760 073:604.369 - 0.010ms returns 0x00000000
TC760 073:604.379 JLINK_ReadReg(FPS15)
TC760 073:604.388 - 0.062ms returns 0x00000000
TC760 073:604.449 JLINK_ReadReg(FPS16)
TC760 073:604.457 - 0.011ms returns 0x00000000
TC760 073:604.465 JLINK_ReadReg(FPS17)
TC760 073:604.493 - 0.031ms returns 0x00000000
TC760 073:604.501 JLINK_ReadReg(FPS18)
TC760 073:604.509 - 0.010ms returns 0x00000000
TC760 073:604.517 JLINK_ReadReg(FPS19)
TC760 073:604.524 - 0.009ms returns 0x00000000
TC760 073:604.532 JLINK_ReadReg(FPS20)
TC760 073:604.539 - 0.010ms returns 0x00000000
TC760 073:604.547 JLINK_ReadReg(FPS21)
TC760 073:604.554 - 0.010ms returns 0x00000000
TC760 073:604.562 JLINK_ReadReg(FPS22)
TC760 073:604.568 - 0.009ms returns 0x00000000
TC760 073:604.577 JLINK_ReadReg(FPS23)
TC760 073:604.583 - 0.009ms returns 0x00000000
TC760 073:604.591 JLINK_ReadReg(FPS24)
TC760 073:604.598 - 0.009ms returns 0x00000000
TC760 073:604.606 JLINK_ReadReg(FPS25)
TC760 073:604.613 - 0.010ms returns 0x00000000
TC760 073:604.621 JLINK_ReadReg(FPS26)
TC760 073:604.629 - 0.012ms returns 0x00000000
TC760 073:604.638 JLINK_ReadReg(FPS27)
TC760 073:604.645 - 0.010ms returns 0x00000000
TC760 073:604.653 JLINK_ReadReg(FPS28)
TC760 073:604.660 - 0.010ms returns 0x00000000
TC760 073:604.668 JLINK_ReadReg(FPS29)
TC760 073:604.675 - 0.009ms returns 0x00000000
TC760 073:604.683 JLINK_ReadReg(FPS30)
TC760 073:604.690 - 0.010ms returns 0x00000000
TC760 073:604.698 JLINK_ReadReg(FPS31)
TC760 073:604.705 - 0.010ms returns 0x00000000
TC760 073:604.796 JLINK_ReadMemEx(0x20002E74, 0x4 Bytes, Flags = 0x02000000)
TC760 073:604.827   CPU_ReadMem(64 bytes @ 0x20002E40)
TC760 073:606.018    -- Updating C cache (64 bytes @ 0x20002E40)
TC760 073:606.048    -- Read from C cache (4 bytes @ 0x20002E74)
TC760 073:606.060   Data:  00 00 00 00
TC760 073:606.070 - 1.277ms returns 4 (0x4)
TC760 073:606.122 JLINK_ReadMemEx(0x20002E78, 0x1 Bytes, Flags = 0x02000000)
TC760 073:606.137    -- Read from C cache (1 bytes @ 0x20002E78)
TC760 073:606.146   Data:  00
TC760 073:606.156 - 0.037ms returns 1 (0x1)
